Element, Terminal, P(kW), Q(kvar),  P_Normal, Q_Normal, P_Emergency, Q_Emergency
"Transformer.SUB1"      ,   1,     25328.4,      8034.3,         0.0,         0.0,         0.0,         0.0
"Transformer.SUB1"      ,   2,    -25327.3,     -7920.0
"Transformer.SUB2"      ,   1,     25328.4,      8034.3,         0.0,         0.0,         0.0,         0.0
"Transformer.SUB2"      ,   2,    -25327.3,     -7920.0
"Transformer.SUB3"      ,   1,     25328.4,      8034.3,         0.0,         0.0,         0.0,         0.0
"Transformer.SUB3"      ,   2,    -25327.3,     -7920.0
"Line.326"              ,   1,         0.0,         0.0,         0.0,         0.0,         0.0,         0.0
"Line.326"              ,   2,        -0.0,        -0.0
"Line.333"              ,   1,      4974.8,       421.0,         0.0,         0.0,         0.0,         0.0
"Line.333"              ,   2,     -4974.8,      -421.0
"Line.335"              ,   1,         0.0,         0.0,         0.0,         0.0,         0.0,         0.0
"Line.335"              ,   2,        -0.0,        -0.0
"Line.150394"           ,   1,       -48.3,       -23.1,         0.0,         0.0,         0.0,         0.0
"Line.150394"           ,   2,        48.3,        23.1
"Line.157109"           ,   1,      5397.4,       374.6,         0.0,         0.0,         0.0,         0.0
"Line.157109"           ,   2,     -5392.8,      -357.7
"Line.157115"           ,   1,      5377.2,       345.2,         0.0,         0.0,         0.0,         0.0
"Line.157115"           ,   2,     -5370.6,      -321.1
"Line.157116"           ,   1,         0.1,         0.3,         0.0,         0.0,         0.0,         0.0
"Line.157116"           ,   2,        -0.1,        -0.3
"Line.157118"           ,   1,       401.8,       190.8,         0.0,         0.0,         0.0,         0.0
"Line.157118"           ,   2,      -401.8,      -190.7
"Line.157119"           ,   1,      5361.8,       315.1,         0.0,         0.0,         0.0,         0.0
"Line.157119"           ,   2,     -5360.1,      -308.8
"Line.157120"           ,   1,       377.4,       179.2,         0.0,         0.0,         0.0,         0.0
"Line.157120"           ,   2,      -377.4,      -179.2
"Line.157121"           ,   1,       -96.3,       -45.3,         0.0,         0.0,         0.0,         0.0
"Line.157121"           ,   2,        96.3,        45.3
"Line.157122"           ,   1,       256.6,       122.3,         0.0,         0.0,         0.0,         0.0
"Line.157122"           ,   2,      -256.6,      -122.3
"Line.157123"           ,   1,        96.3,        45.3,         0.0,         0.0,         0.0,         0.0
"Line.157123"           ,   2,       -96.3,       -45.3
"Line.157124"           ,   1,      -305.6,      -145.0,         0.0,         0.0,         0.0,         0.0
"Line.157124"           ,   2,       305.6,       145.0
"Line.157126"           ,   1,       305.6,       145.0,         0.0,         0.0,         0.0,         0.0
"Line.157126"           ,   2,      -305.6,      -144.9
"Line.157127"           ,   1,       257.4,       122.1,         0.0,         0.0,         0.0,         0.0
"Line.157127"           ,   2,      -257.3,      -122.1
"Line.157128"           ,   1,       257.0,       120.7,         0.0,         0.0,         0.0,         0.0
"Line.157128"           ,   2,      -257.0,      -120.6
"Line.157129"           ,   1,       160.8,        74.9,         0.0,         0.0,         0.0,         0.0
"Line.157129"           ,   2,      -160.8,       -74.9
"Line.157130"           ,   1,       -96.2,       -45.7,         0.0,         0.0,         0.0,         0.0
"Line.157130"           ,   2,        96.2,        45.7
"Line.157131"           ,   1,         0.3,         1.4,         0.0,         0.0,         0.0,         0.0
"Line.157131"           ,   2,        -0.3,        -1.4
"Line.157132"           ,   1,      4628.1,       -38.4,      1478.4,        12.3,       887.9,         7.4
"Line.157132"           ,   2,     -4620.0,        42.4
"Line.157133"           ,   1,      4612.3,       -46.1,         0.0,         0.0,         0.0,         0.0
"Line.157133"           ,   2,     -4611.8,        47.6
"Line.157136"           ,   1,       241.2,       110.5,         0.0,         0.0,         0.0,         0.0
"Line.157136"           ,   2,      -241.2,      -110.5
"Line.157137"           ,   1,      -241.2,      -110.5,         0.0,         0.0,         0.0,         0.0
"Line.157137"           ,   2,       241.2,       110.5
"Line.157138"           ,   1,      -241.2,      -110.5,         0.0,         0.0,         0.0,         0.0
"Line.157138"           ,   2,       241.3,       110.5
"Line.157142"           ,   1,      4611.8,       -47.8,         0.0,         0.0,         0.0,         0.0
"Line.157142"           ,   2,     -4611.4,        49.3
"Line.157143"           ,   1,      4294.2,      -195.7,         0.0,         0.0,         0.0,         0.0
"Line.157143"           ,   2,     -4293.6,       197.7
"Line.157144"           ,   1,      4196.9,      -245.0,         0.0,         0.0,         0.0,         0.0
"Line.157144"           ,   2,     -4196.6,       246.4
"Line.157145"           ,   1,      4293.5,      -198.0,         0.0,         0.0,         0.0,         0.0
"Line.157145"           ,   2,     -4293.1,       199.5
"Line.157147"           ,   1,       -48.1,       -22.8,         0.0,         0.0,         0.0,         0.0
"Line.157147"           ,   2,        48.1,        22.8
"Line.157148"           ,   1,       -96.2,       -45.5,         0.0,         0.0,         0.0,         0.0
"Line.157148"           ,   2,        96.2,        45.5
"Line.157149"           ,   1,       -96.2,       -45.5,         0.0,         0.0,         0.0,         0.0
"Line.157149"           ,   2,        96.2,        45.5
"Line.157150"           ,   1,        16.3,         7.7,         0.0,         0.0,         0.0,         0.0
"Line.157150"           ,   2,       -16.3,        -7.7
"Line.157151"           ,   1,        11.4,         5.3,         0.0,         0.0,         0.0,         0.0
"Line.157151"           ,   2,       -11.4,        -5.3
"Line.157152"           ,   1,      4180.3,      -254.1,         0.0,         0.0,         0.0,         0.0
"Line.157152"           ,   2,     -4179.7,       256.2
"Line.157153"           ,   1,       -76.6,       -35.9,         0.0,         0.0,         0.0,         0.0
"Line.157153"           ,   2,        76.6,        35.9
"Line.157155"           ,   1,        76.6,        35.9,         0.0,         0.0,         0.0,         0.0
"Line.157155"           ,   2,       -76.6,       -35.9
"Line.157156"           ,   1,        46.0,        21.4,         0.0,         0.0,         0.0,         0.0
"Line.157156"           ,   2,       -46.0,       -21.4
"Line.157157"           ,   1,        30.7,        14.3,         0.0,         0.0,         0.0,         0.0
"Line.157157"           ,   2,       -30.7,       -14.3
"Line.157158"           ,   1,        15.3,         7.1,         0.0,         0.0,         0.0,         0.0
"Line.157158"           ,   2,       -15.3,        -7.1
"Line.157159"           ,   1,        15.3,         7.1,         0.0,         0.0,         0.0,         0.0
"Line.157159"           ,   2,       -15.3,        -7.1
"Line.157160"           ,   1,      4103.1,      -292.1,         0.0,         0.0,         0.0,         0.0
"Line.157160"           ,   2,     -4102.4,       294.4
"Line.157163"           ,   1,        48.1,        22.7,         0.0,         0.0,         0.0,         0.0
"Line.157163"           ,   2,       -48.1,       -22.7
"Line.157165"           ,   1,        48.1,        22.7,         0.0,         0.0,         0.0,         0.0
"Line.157165"           ,   2,       -48.1,       -22.7
"Line.157167"           ,   1,        48.1,        22.7,         0.0,         0.0,         0.0,         0.0
"Line.157167"           ,   2,       -48.1,       -22.7
"Line.157168"           ,   1,      3892.6,      -395.9,       823.9,        83.8,       248.6,        25.3
"Line.157168"           ,   2,     -3859.6,       412.4
"Line.174945"           ,   1,        -0.0,        -0.0,         0.0,         0.0,         0.0,         0.0
"Line.174945"           ,   2,         0.0,        -0.0
"Line.174947"           ,   1,        95.5,        43.9,         0.0,         0.0,         0.0,         0.0
"Line.174947"           ,   2,       -95.5,       -43.9
"Line.174948"           ,   1,       335.8,       155.4,         0.0,         0.0,         0.0,         0.0
"Line.174948"           ,   2,      -335.8,      -155.4
"Line.174950"           ,   1,       539.2,       250.1,         0.0,         0.0,         0.0,         0.0
"Line.174950"           ,   2,      -539.2,      -250.1
"Line.174951"           ,   1,        95.5,        43.9,         0.0,         0.0,         0.0,         0.0
"Line.174951"           ,   2,       -95.5,       -43.9
"Line.174952"           ,   1,       443.7,       206.2,         0.0,         0.0,         0.0,         0.0
"Line.174952"           ,   2,      -443.6,      -206.1
"Line.174953"           ,   1,       443.6,       206.1,         0.0,         0.0,         0.0,         0.0
"Line.174953"           ,   2,      -443.6,      -206.1
"Line.174954"           ,   1,       431.6,       200.6,         0.0,         0.0,         0.0,         0.0
"Line.174954"           ,   2,      -431.6,      -200.6
"Line.174955"           ,   1,       335.8,       155.4,         0.0,         0.0,         0.0,         0.0
"Line.174955"           ,   2,      -335.8,      -155.4
"Line.174956"           ,   1,        95.5,        43.9,         0.0,         0.0,         0.0,         0.0
"Line.174956"           ,   2,       -95.5,       -43.9
"Line.174957"           ,   1,        95.7,        45.2,         0.0,         0.0,         0.0,         0.0
"Line.174957"           ,   2,       -95.7,       -45.2
"Line.174958"           ,   1,         0.3,         1.4,         0.0,         0.0,         0.0,         0.0
"Line.174958"           ,   2,        -0.3,        -1.4
"Line.174959"           ,   1,         0.3,         1.4,         0.0,         0.0,         0.0,         0.0
"Line.174959"           ,   2,        -0.3,        -1.4
"Line.174960"           ,   1,         0.3,         1.4,         0.0,         0.0,         0.0,         0.0
"Line.174960"           ,   2,        -0.3,        -1.4
"Line.174961"           ,   1,       114.1,        52.7,         0.0,         0.0,         0.0,         0.0
"Line.174961"           ,   2,      -114.0,       -52.7
"Line.174962"           ,   1,        91.2,        42.1,         0.0,         0.0,         0.0,         0.0
"Line.174962"           ,   2,       -91.2,       -42.1
"Line.174963"           ,   1,        76.0,        35.1,         0.0,         0.0,         0.0,         0.0
"Line.174963"           ,   2,       -76.0,       -35.1
"Line.174964"           ,   1,        45.6,        21.0,         0.0,         0.0,         0.0,         0.0
"Line.174964"           ,   2,       -45.6,       -21.0
"Line.174965"           ,   1,        30.4,        14.1,         0.0,         0.0,         0.0,         0.0
"Line.174965"           ,   2,       -30.4,       -14.1
"Line.174966"           ,   1,       100.3,        45.7,         0.0,         0.0,         0.0,         0.0
"Line.174966"           ,   2,      -100.3,       -45.7
"Line.174967"           ,   1,        25.1,        11.5,         0.0,         0.0,         0.0,         0.0
"Line.174967"           ,   2,       -25.1,       -11.5
"Line.174968"           ,   1,        25.1,        11.5,         0.0,         0.0,         0.0,         0.0
"Line.174968"           ,   2,       -25.1,       -11.5
"Line.174969"           ,   1,        50.1,        22.7,         0.0,         0.0,         0.0,         0.0
"Line.174969"           ,   2,       -50.1,       -22.7
"Line.174970"           ,   1,        33.4,        15.1,         0.0,         0.0,         0.0,         0.0
"Line.174970"           ,   2,       -33.4,       -15.1
"Line.174971"           ,   1,        16.7,         7.6,         0.0,         0.0,         0.0,         0.0
"Line.174971"           ,   2,       -16.7,        -7.6
"Line.174972"           ,   1,        16.7,         7.6,         0.0,         0.0,         0.0,         0.0
"Line.174972"           ,   2,       -16.7,        -7.6
"Line.174973"           ,   1,       121.5,        57.0,         0.0,         0.0,         0.0,         0.0
"Line.174973"           ,   2,      -121.5,       -57.0
"Line.174974"           ,   1,        97.2,        45.6,         0.0,         0.0,         0.0,         0.0
"Line.174974"           ,   2,       -97.2,       -45.6
"Line.174975"           ,   1,        72.9,        34.3,         0.0,         0.0,         0.0,         0.0
"Line.174975"           ,   2,       -72.9,       -34.3
"Line.174976"           ,   1,        16.2,         7.4,         0.0,         0.0,         0.0,         0.0
"Line.174976"           ,   2,       -16.2,        -7.4
"Line.174977"           ,   1,        56.7,        26.8,         0.0,         0.0,         0.0,         0.0
"Line.174977"           ,   2,       -56.7,       -26.8
"Line.174978"           ,   1,        24.4,        11.8,         0.0,         0.0,         0.0,         0.0
"Line.174978"           ,   2,       -24.4,       -11.8
"Line.174979"           ,   1,         0.2,         0.5,         0.0,         0.0,         0.0,         0.0
"Line.174979"           ,   2,        -0.2,        -0.5
"Line.174980"           ,   1,      -539.5,      -250.6,         0.0,         0.0,         0.0,         0.0
"Line.174980"           ,   2,       539.6,       251.0
"Line.174981"           ,   1,         0.0,        -0.0,         0.0,         0.0,         0.0,         0.0
"Line.174981"           ,   2,        -0.0,        -0.0
"Line.174982"           ,   1,      -539.6,      -251.0,         0.0,         0.0,         0.0,         0.0
"Line.174982"           ,   2,       539.6,       251.0
"Line.174983"           ,   1,     -2168.3,       116.4,         0.0,         0.0,         0.0,         0.0
"Line.174983"           ,   2,      2168.4,      -115.9
"Line.174984"           ,   1,        -0.0,        -0.0,         0.0,         0.0,         0.0,         0.0
"Line.174984"           ,   2,        -0.0,         0.0
"Line.174987"           ,   1,      1628.7,      -367.3,         0.0,         0.0,         0.0,         0.0
"Line.174987"           ,   2,     -1628.6,       367.7
"Line.174988"           ,   1,       556.0,      -829.3,         0.0,         0.0,         0.0,         0.0
"Line.174988"           ,   2,      -556.0,       829.3
"Line.174989"           ,   1,       111.0,        52.6,         0.0,         0.0,         0.0,         0.0
"Line.174989"           ,   2,      -111.0,       -52.6
"Line.174990"           ,   1,      1072.5,       461.5,         0.0,         0.0,         0.0,         0.0
"Line.174990"           ,   2,     -1072.5,      -461.5
"Line.174991"           ,   1,         0.0,        -0.0,         0.0,         0.0,         0.0,         0.0
"Line.174991"           ,   2,        -0.0,        -0.0
"Line.174994"           ,   1,       125.4,        57.3,         0.0,         0.0,         0.0,         0.0
"Line.174994"           ,   2,      -125.4,       -57.3
"Line.174995"           ,   1,     -2168.7,       115.4,         0.0,         0.0,         0.0,         0.0
"Line.174995"           ,   2,      2169.0,      -114.3
"Line.174998"           ,   1,     -2488.6,       -27.8,         0.0,         0.0,         0.0,         0.0
"Line.174998"           ,   2,      2488.8,        28.5
"Line.174999"           ,   1,     -2491.9,       -29.9,         0.0,         0.0,         0.0,         0.0
"Line.174999"           ,   2,      2492.1,        30.5
"Line.175000"           ,   1,       125.4,        57.3,         0.0,         0.0,         0.0,         0.0
"Line.175000"           ,   2,      -125.4,       -57.3
"Line.175001"           ,   1,        -0.3,        -1.4,         0.0,         0.0,         0.0,         0.0
"Line.175001"           ,   2,         0.3,         1.4
"Line.175002"           ,   1,       111.0,        52.6,         0.0,         0.0,         0.0,         0.0
"Line.175002"           ,   2,      -111.0,       -52.6
"Line.175003"           ,   1,        95.7,        45.7,         0.0,         0.0,         0.0,         0.0
"Line.175003"           ,   2,       -95.7,       -45.7
"Line.175004"           ,   1,         0.3,         1.4,         0.0,         0.0,         0.0,         0.0
"Line.175004"           ,   2,        -0.3,        -1.4
"Line.175005"           ,   1,         0.3,         1.4,         0.0,         0.0,         0.0,         0.0
"Line.175005"           ,   2,        -0.3,        -1.4
"Line.175006"           ,   1,        92.0,        42.3,         0.0,         0.0,         0.0,         0.0
"Line.175006"           ,   2,       -92.0,       -42.3
"Line.175007"           ,   1,     -2686.0,      -119.7,         0.0,         0.0,         0.0,         0.0
"Line.175007"           ,   2,      2686.2,       120.4
"Line.175008"           ,   1,     -2686.2,       971.2,         0.0,         0.0,         0.0,         0.0
"Line.175008"           ,   2,      2686.5,      -970.3
"Line.175009"           ,   1,        92.0,        42.3,         0.0,         0.0,         0.0,         0.0
"Line.175009"           ,   2,       -92.0,       -42.3
"Line.175010"           ,   1,        91.4,        42.5,         0.0,         0.0,         0.0,         0.0
"Line.175010"           ,   2,       -91.4,       -42.5
"Line.175011"           ,   1,        15.2,         7.0,         0.0,         0.0,         0.0,         0.0
"Line.175011"           ,   2,       -15.2,        -7.0
"Line.175013"           ,   1,        76.1,        35.5,         0.0,         0.0,         0.0,         0.0
"Line.175013"           ,   2,       -76.1,       -35.5
"Line.175014"           ,   1,        22.9,        10.7,         0.0,         0.0,         0.0,         0.0
"Line.175014"           ,   2,       -22.9,       -10.7
"Line.175015"           ,   1,        53.3,        24.8,         0.0,         0.0,         0.0,         0.0
"Line.175015"           ,   2,       -53.3,       -24.8
"Line.175016"           ,   1,        22.9,        10.7,         0.0,         0.0,         0.0,         0.0
"Line.175016"           ,   2,       -22.9,       -10.7
"Line.175017"           ,   1,        30.4,        14.2,         0.0,         0.0,         0.0,         0.0
"Line.175017"           ,   2,       -30.4,       -14.2
"Line.175018"           ,   1,       -15.2,        -7.0,         0.0,         0.0,         0.0,         0.0
"Line.175018"           ,   2,        15.2,         7.0
"Line.175019"           ,   1,        22.8,        10.7,         0.0,         0.0,         0.0,         0.0
"Line.175019"           ,   2,       -22.8,       -10.7
"Line.175020"           ,   1,       -38.1,       -17.7,         0.0,         0.0,         0.0,         0.0
"Line.175020"           ,   2,        38.1,        17.7
"Line.175021"           ,   1,       -68.5,       -31.8,         0.0,         0.0,         0.0,         0.0
"Line.175021"           ,   2,        68.5,        31.8
"Line.175022"           ,   1,        92.0,        42.3,         0.0,         0.0,         0.0,         0.0
"Line.175022"           ,   2,       -92.0,       -42.3
"Line.175023"           ,   1,       125.4,        57.3,         0.0,         0.0,         0.0,         0.0
"Line.175023"           ,   2,      -125.4,       -57.3
"Line.175024"           ,   1,        92.0,        42.0,         0.0,         0.0,         0.0,         0.0
"Line.175024"           ,   2,       -92.0,       -42.0
"Line.175025"           ,   1,        66.9,        30.4,         0.0,         0.0,         0.0,         0.0
"Line.175025"           ,   2,       -66.9,       -30.4
