Element, I1_1, Ang1_1, I1_2, Ang1_2, I1_3, Ang1_3, I1_4, Ang1_4, Iresid1, AngResid1, I2_1, Ang2_1, I2_2, Ang2_2, I2_3, Ang2_3, I2_4, Ang2_4, Iresid2, AngResid2
Vsource.SOURCE,    415.442,   153.39,    415.072,    33.42,    415.426,   -86.55,          0,     0.00, 6.00685E-8,    97.13,    415.442,   -26.61,    415.072,  -146.58,    415.426,    93.45,          0,     0.00, 6.00685E-8,   -82.87
Transformer.SUB1,    138.481,   -26.61,    138.357,  -146.58,    138.475,    93.45,          0,     0.00, 2.57244E-12,    45.00,    1279.01,   123.39,    1276.16,     3.47,     1274.9,  -116.60,    5.18539,   -80.47, 1.64051E-8,    98.83
Transformer.SUB2,    138.481,   -26.61,    138.357,  -146.58,    138.475,    93.45,          0,     0.00, 2.57244E-12,    45.00,    1279.01,   123.39,    1276.16,     3.47,     1274.9,  -116.60,    5.18539,   -80.47, 1.64051E-8,    98.83
Transformer.SUB3,    138.481,   -26.61,    138.357,  -146.58,    138.475,    93.45,          0,     0.00, 2.57244E-12,    45.00,    1279.01,   123.39,    1276.16,     3.47,     1274.9,  -116.60,    5.18539,   -80.47, 1.64051E-8,    98.83
Line.326,          0,     0.00,          0,     0.00,          0,     0.00,          0,     0.00,          0,     0.00, 7.88254E-8,    50.67, 7.88361E-8,    -9.32,          0,     0.00,          0,     0.00, 1.36544E-7,    20.67
Line.333,    273.274,   -44.59,    243.353,  -161.90,    271.154,    75.55,          0,     0.00,    31.3433,    -8.95,    273.274,   135.41,    243.353,    18.10,    271.154,  -104.45,          0,     0.00,    31.3433,   171.05
Line.335,          0,     0.00,          0,     0.00,          0,     0.00,          0,     0.00,          0,     0.00, 7.88254E-8,    50.67, 7.88361E-8,    -9.32,          0,     0.00,          0,     0.00, 1.36544E-7,    20.67
Line.150394,    2.56318,   115.09,    2.56385,    -4.93,    2.56298,  -124.93,          0,     0.00, 2.56708E-9,   -57.03,    2.56318,   -64.91,    2.56385,   175.07,    2.56298,    55.07,          0,     0.00, 1.97906E-9,   118.07
Line.157109,     269.72,   -44.31,    239.797,  -161.54,    267.487,    75.84,          0,     0.00,    31.3662,    -9.14,     269.72,   135.69,    239.797,    18.46,    267.487,  -104.16,          0,     0.00,    31.3662,   170.86
Line.157115,     269.72,   -44.31,    238.031,  -161.36,    267.487,    75.84,          0,     0.00,     33.282,    -8.88,     269.72,   135.69,    238.031,    18.64,    267.487,  -104.16,          0,     0.00,     33.282,   171.12
Line.157116,  0.0462419,  -110.16,  7.5039E-8,   -69.89, 7.48676E-8,   170.08,          0,     0.00,   0.046242,  -110.16,   0.046242,    69.84, 3.63798E-12,    90.00, 3.63798E-11,    53.13,          0,     0.00,   0.046242,    69.84
Line.157118,    21.2326,   -65.40,    21.3933,   174.60,    21.4795,    54.60,          0,     0.00,   0.214526,    94.17,    21.2326,   114.60,    21.3933,    -5.40,    21.4795,  -125.40,          0,     0.00,   0.214526,   -85.83
Line.157119,    269.701,   -44.30,     236.84,  -161.23,    267.487,    75.84,          0,     0.00,    34.5906,    -8.66,    269.701,   135.70,     236.84,    18.77,    267.487,  -104.16,          0,     0.00,    34.5906,   171.34
Line.157120,    20.0028,   -65.39,    20.0906,   174.60,    20.1269,    54.58,          0,     0.00,   0.107252,    94.21,    20.0028,   114.61,    20.0906,    -5.40,    20.1269,  -125.42,          0,     0.00,   0.107252,   -85.79
Line.157121,    5.11572,   114.82,    5.12027,    -5.22,    5.11511,  -125.24,          0,     0.00,  2.2506E-8,   -35.95,    5.11572,   -65.18,    5.12027,   174.78,    5.11511,    54.76,          0,     0.00, 2.24118E-8,   143.87
Line.157122,    13.6572,   -65.47,    13.6677,   174.52,    13.6594,    54.49,          0,     0.00, 6.05333E-8,   144.04,    13.6572,   114.53,    13.6677,    -5.48,    13.6594,  -125.51,          0,     0.00, 6.09003E-8,   -35.95
Line.157123,    5.11572,   -65.18,    5.12027,   174.78,    5.11511,    54.76,          0,     0.00, 2.30912E-8,   144.08,    5.11572,   114.82,    5.12027,    -5.22,    5.11511,  -125.24,          0,     0.00, 2.30912E-8,   -35.92
Line.157124,    16.2453,   114.66,    16.2602,    -5.38,    16.2428,  -125.41,          0,     0.00, 8.47237E-8,   -36.44,    16.2453,   -65.34,    16.2602,   174.62,    16.2428,    54.59,          0,     0.00,  8.4048E-8,   143.52
Line.157126,    16.2453,   -65.34,    16.2602,   174.62,    16.2428,    54.59,          0,     0.00, 8.53228E-8,   143.91,    16.2453,   114.66,    16.2602,    -5.38,    16.2428,  -125.41,          0,     0.00, 8.53228E-8,   -36.09
Line.157127,    13.6845,   -65.35,    13.6974,   174.61,    13.6818,    54.58,          0,     0.00, 7.35557E-8,   143.94,    13.6845,   114.65,    13.6974,    -5.39,    13.6818,  -125.42,          0,     0.00, 7.35557E-8,   -36.06
Line.157128,    13.6432,   -65.12,    13.6559,   174.83,    13.6404,    54.81,          0,     0.00, 6.19045E-8,   143.91,    13.6432,   114.88,    13.6559,    -5.17,    13.6404,  -125.19,          0,     0.00, 6.19045E-8,   -36.09
Line.157129,    8.52434,   -64.96,    8.53297,   174.98,    8.52104,    54.96,          0,     0.00, 3.88007E-8,   143.98,    8.52434,   115.04,    8.53297,    -5.02,    8.52104,  -125.04,          0,     0.00, 3.88007E-8,   -36.02
Line.157130,    5.11894,   114.61,    5.12302,    -5.41,    5.11943,  -125.44,          0,     0.00, 2.32641E-8,   -36.24,    5.11894,   -65.39,    5.12302,   174.59,    5.11943,    54.56,          0,     0.00, 2.32641E-8,   143.76
Line.157131,  0.0683146,  -118.00,   0.068372,   122.03,  0.0683741,     1.97,          0,     0.00, 1.16404E-8,   143.91,  0.0683146,    62.00,   0.068372,   -57.97,  0.0683741,  -178.03,          0,     0.00, 1.16404E-8,   -36.09
Line.157132,    235.116,   -41.02,     199.64,  -156.35,    232.731,    79.21,          0,     0.00,    38.5228,    -8.59,    235.116,   138.98,     199.64,    23.65,    232.731,  -100.79,          0,     0.00,    38.5228,   171.41
Line.157133,    233.997,   -40.89,     199.64,  -156.35,    232.731,    79.21,          0,     0.00,    37.8626,    -7.04,    233.997,   139.11,     199.64,    23.65,    232.731,  -100.79,          0,     0.00,    37.8626,   172.96
Line.157136,    12.7709,   -64.64,    12.7873,   175.27,    12.7616,    55.26,          0,     0.00, 6.90378E-8,   143.71,    12.7709,   115.36,    12.7873,    -4.73,    12.7616,  -124.74,          0,     0.00, 6.87124E-8,   -36.25
Line.157137,    12.7709,   115.36,    12.7873,    -4.73,    12.7616,  -124.74,          0,     0.00, 6.91304E-8,   -36.80,    12.7709,   -64.64,    12.7873,   175.27,    12.7616,    55.26,          0,     0.00, 6.91304E-8,   143.20
Line.157138,    12.7709,   115.36,    12.7873,    -4.73,    12.7616,  -124.74,          0,     0.00, 6.85039E-8,   -36.22,    12.7709,   -64.64,    12.7873,   175.27,    12.7616,    55.26,          0,     0.00, 6.81256E-8,   143.79
Line.157142,    233.997,   -40.89,    199.633,  -156.35,    232.731,    79.21,          0,     0.00,    37.8804,    -7.06,    233.997,   139.11,    199.633,    23.65,    232.731,  -100.79,          0,     0.00,    37.8804,   172.94
Line.157143,     218.96,   -39.14,    184.724,  -153.80,    217.603,    81.01,          0,     0.00,    38.3989,    -7.21,     218.96,   140.86,    184.724,    26.20,    217.603,   -98.99,          0,     0.00,    38.3989,   172.79
Line.157144,    214.381,   -38.53,     180.37,  -152.93,    213.032,    81.62,          0,     0.00,    38.4328,    -7.26,    214.381,   141.47,     180.37,    27.07,    213.032,   -98.38,          0,     0.00,    38.4328,   172.74
Line.157145,     218.96,   -39.14,    184.713,  -153.79,    217.603,    81.01,          0,     0.00,    38.4328,    -7.26,     218.96,   140.86,    184.713,    26.21,    217.603,   -98.99,          0,     0.00,    38.4328,   172.74
Line.157147,    2.56107,   114.48,    2.56337,    -5.53,    2.56171,  -125.57,          0,     0.00, 1.50169E-8,   -35.89,    2.56107,   -65.52,    2.56337,   174.47,    2.56171,    54.43,          0,     0.00, 1.50169E-8,   144.11
Line.157148,    5.12084,   114.57,    5.12563,    -5.45,    5.12165,  -125.49,          0,     0.00, 2.97237E-8,   -34.47,    5.12084,   -65.43,    5.12563,   174.55,    5.12165,    54.51,          0,     0.00, 2.97237E-8,   145.53
Line.157149,    5.12084,   114.57,    5.12563,    -5.45,    5.12165,  -125.49,          0,     0.00, 3.04616E-8,   -35.05,    5.12083,   -65.43,    5.12563,   174.55,    5.12165,    54.51,          0,     0.00, 3.01528E-8,   144.94
Line.157150,    2.06269,   -65.30,   0.264761,   173.62,   0.274614,    53.84,          0,     0.00,    1.79233,   -64.88,    2.06269,   114.70,   0.264761,    -6.38,   0.274614,  -126.16,          0,     0.00,    1.79233,   115.12
Line.157151,     1.8126,   -65.11, 2.69221E-8,   -70.14, 2.67812E-8,   169.92,          0,     0.00,     1.8126,   -65.11,     1.8126,   114.89, 5.12232E-11,    16.50, 2.91038E-11,   180.00,          0,     0.00,     1.8126,   114.89
Line.157152,    212.542,   -38.28,    180.149,  -152.89,    212.789,    81.66,          0,     0.00,    37.5037,    -4.94,    212.542,   141.72,    180.149,    27.11,    212.789,   -98.34,          0,     0.00,    37.5037,   175.06
Line.157153,    12.2305,   114.57,          0,     0.00,          0,     0.00,          0,     0.00,    12.2305,   114.57,    12.2305,   -65.43,          0,     0.00,          0,     0.00,          0,     0.00,    12.2305,   -65.43
Line.157155,    12.2305,   -65.43,          0,     0.00,          0,     0.00,          0,     0.00,    12.2305,   -65.43,    12.2305,   114.57,          0,     0.00,          0,     0.00,          0,     0.00,    12.2305,   114.57
Line.157156,     7.3325,   -65.32,          0,     0.00,          0,     0.00,          0,     0.00,     7.3325,   -65.32,     7.3325,   114.68,          0,     0.00,          0,     0.00,          0,     0.00,     7.3325,   114.68
Line.157157,    4.88829,   -65.32,          0,     0.00,          0,     0.00,          0,     0.00,    4.88829,   -65.32,    4.88829,   114.68,          0,     0.00,          0,     0.00,          0,     0.00,    4.88829,   114.68
Line.157158,    2.44421,   -65.32,          0,     0.00,          0,     0.00,          0,     0.00,    2.44421,   -65.32,    2.44421,   114.68,          0,     0.00,          0,     0.00,          0,     0.00,    2.44421,   114.68
Line.157159,    2.44408,   -65.31,          0,     0.00,          0,     0.00,          0,     0.00,    2.44408,   -65.31,    2.44408,   114.69,          0,     0.00,          0,     0.00,          0,     0.00,    2.44408,   114.69
Line.157160,    201.736,   -36.69,    180.149,  -152.89,    212.789,    81.66,          0,     0.00,    33.2288,    13.74,    201.736,   143.31,    180.149,    27.11,    212.789,   -98.34,          0,     0.00,    33.2288,  -166.26
Line.157163,    2.55941,   -65.46,    2.56231,   174.50,    2.55963,    54.46,          0,     0.00, 1.75193E-8,   149.00,    2.55941,   114.54,    2.56231,    -5.50,    2.55963,  -125.54,          0,     0.00, 1.74426E-8,   -32.05
Line.157165,    2.55941,   -65.46,    2.56231,   174.50,    2.55963,    54.46,          0,     0.00, 1.75213E-8,   147.95,    2.55941,   114.54,    2.56231,    -5.50,    2.55963,  -125.54,          0,     0.00, 1.76882E-8,   -32.38
Line.157167,    2.55941,   -65.46,    2.56231,   174.50,    2.55963,    54.46,          0,     0.00,  1.8001E-8,   148.55,    2.55941,   114.54,    2.56231,    -5.50,    2.55963,  -125.54,          0,     0.00,  1.8001E-8,   -31.45
Line.157168,    192.068,   -35.12,    170.879,  -150.90,    202.973,    83.07,          0,     0.00,    33.2288,    13.74,    192.068,   144.88,    170.879,    29.10,    202.973,   -96.93,          0,     0.00,    33.2288,  -166.26
Line.174945, 2.73159E-6,    49.00, 2.74344E-6,   -70.65, 2.72211E-6,   169.18,          0,     0.00, 3.18604E-8,   -29.95, 8.91409E-12,    84.14, 8.7738E-12,    58.78, 1.09518E-11,  -175.24,          0,     0.00, 1.63961E-11,   109.44
Line.174947,    5.10629,   -65.46,    5.11329,   174.46,    5.10326,    54.43,          0,     0.00, 5.08101E-8,   149.48,    5.10629,   114.54,    5.11329,    -5.54,    5.10326,  -125.57,          0,     0.00, 5.14299E-8,   -30.41
Line.174948,    18.3327,   -65.78,    19.4981,   174.23,    16.1316,    54.70,          0,     0.00,    3.01433,  -148.03,    18.3327,   114.22,    19.4981,    -5.77,    16.1316,  -125.30,          0,     0.00,    3.01433,    31.97
Line.174950,    28.5854,   -65.77,    31.6824,   174.25,    26.3781,    54.48,          0,     0.00,    4.68867,  -162.31,    28.5854,   114.23,    31.6824,    -5.75,    26.3781,  -125.52,          0,     0.00,    4.68867,    17.69
Line.174951,    5.10629,   -65.46,    5.11329,   174.46,    5.10326,    54.43,          0,     0.00,   5.013E-8,   149.20,    5.10629,   114.54,    5.11329,    -5.54,    5.10326,  -125.57,          0,     0.00, 5.02147E-8,   -30.90
Line.174952,    23.4792,   -65.84,    26.5691,   174.21,    21.2749,    54.49,          0,     0.00,    4.68867,  -162.31,    23.4792,   114.16,    26.5691,    -5.79,    21.2749,  -125.51,          0,     0.00,    4.68867,    17.69
Line.174953,    23.4792,   -65.84,    26.5691,   174.21,    21.2749,    54.49,          0,     0.00,    4.68867,  -162.31,    23.4792,   114.16,    26.5691,    -5.79,    21.2749,  -125.51,          0,     0.00,    4.68867,    17.69
Line.174954,    23.4792,   -65.84,    24.6518,   174.16,    21.2749,    54.49,          0,     0.00,    3.01433,  -148.03,    23.4792,   114.16,    24.6518,    -5.84,    21.2749,  -125.51,          0,     0.00,    3.01433,    31.97
Line.174955,    18.3327,   -65.78,    19.4981,   174.23,    16.1316,    54.70,          0,     0.00,    3.01433,  -148.03,    18.3327,   114.22,    19.4981,    -5.77,    16.1316,  -125.30,          0,     0.00,    3.01433,    31.97
Line.174956,    5.10629,   -65.46,    5.11329,   174.46,    5.10326,    54.43,          0,     0.00, 5.09393E-8,   150.08,    5.10629,   114.54,    5.11329,    -5.54,    5.10326,  -125.57,          0,     0.00, 5.09393E-8,   -29.92
Line.174957,    5.14658,   -66.05,    5.15372,   173.87,    5.14369,    53.84,          0,     0.00,  7.2041E-8,   150.04,    5.14658,   113.95,    5.15372,    -6.13,    5.14369,  -126.16,          0,     0.00, 7.36391E-8,   -29.93
Line.174958,  0.0674957,  -118.76,  0.0676369,   121.23,  0.0675613,     1.13,          0,     0.00, 2.45426E-8,   149.42,  0.0674957,    61.23,  0.0676369,   -58.77,  0.0675614,  -178.87,          0,     0.00, 2.47856E-8,   -29.94
Line.174959,  0.0674956,  -118.76,  0.0676368,   121.23,  0.0675613,     1.13,          0,     0.00, 2.33822E-8,   150.43,  0.0674957,    61.24,  0.0676369,   -58.77,  0.0675613,  -178.87,          0,     0.00, 2.40338E-8,   -29.57
Line.174960,  0.0674957,  -118.77,  0.0676369,   121.23,  0.0675614,     1.13,          0,     0.00, 2.51952E-8,   150.37,  0.0674957,    61.23,  0.0676369,   -58.77,  0.0675614,  -178.87,          0,     0.00, 2.51952E-8,   -29.63
Line.174961,    18.3327,   -65.78,          0,     0.00,          0,     0.00,          0,     0.00,    18.3327,   -65.78,    18.3327,   114.22,          0,     0.00,          0,     0.00,          0,     0.00,    18.3327,   114.22
Line.174962,    14.6591,   -65.74,          0,     0.00,          0,     0.00,          0,     0.00,    14.6591,   -65.74,    14.6591,   114.26,          0,     0.00,          0,     0.00,          0,     0.00,    14.6591,   114.26
Line.174963,    12.2189,   -65.78,          0,     0.00,          0,     0.00,          0,     0.00,    12.2189,   -65.78,    12.2189,   114.22,          0,     0.00,          0,     0.00,          0,     0.00,    12.2189,   114.22
Line.174964,    7.32911,   -65.73,          0,     0.00,          0,     0.00,          0,     0.00,    7.32911,   -65.73,    7.32911,   114.27,          0,     0.00,          0,     0.00,          0,     0.00,    7.32911,   114.27
Line.174965,    4.88929,   -65.82,          0,     0.00,          0,     0.00,          0,     0.00,    4.88929,   -65.82,    4.88929,   114.18,          0,     0.00,          0,     0.00,          0,     0.00,    4.88929,   114.18
Line.174966,    16.1316,    54.70,          0,     0.00,          0,     0.00,          0,     0.00,    16.1316,    54.70,    16.1316,  -125.30,          0,     0.00,          0,     0.00,          0,     0.00,    16.1316,  -125.30
Line.174967,    4.03956,    54.53,          0,     0.00,          0,     0.00,          0,     0.00,    4.03956,    54.53,    4.03956,  -125.47,          0,     0.00,          0,     0.00,          0,     0.00,    4.03956,  -125.47
Line.174968,    4.03973,    54.52,          0,     0.00,          0,     0.00,          0,     0.00,    4.03973,    54.52,    4.03973,  -125.48,          0,     0.00,          0,     0.00,          0,     0.00,    4.03973,  -125.48
Line.174969,    8.05239,    54.87,          0,     0.00,          0,     0.00,          0,     0.00,    8.05239,    54.87,    8.05239,  -125.13,          0,     0.00,          0,     0.00,          0,     0.00,    8.05239,  -125.13
Line.174970,    5.36822,    54.87,          0,     0.00,          0,     0.00,          0,     0.00,    5.36822,    54.87,    5.36822,  -125.13,          0,     0.00,          0,     0.00,          0,     0.00,    5.36822,  -125.13
Line.174971,    2.68411,    54.87,          0,     0.00,          0,     0.00,          0,     0.00,    2.68411,    54.87,    2.68411,  -125.13,          0,     0.00,          0,     0.00,          0,     0.00,    2.68411,  -125.13
Line.174972,    2.68411,    54.87,          0,     0.00,          0,     0.00,          0,     0.00,    2.68411,    54.87,    2.68411,  -125.13,          0,     0.00,          0,     0.00,          0,     0.00,    2.68411,  -125.13
Line.174973,    19.4981,   174.23,          0,     0.00,          0,     0.00,          0,     0.00,    19.4981,   174.23,    19.4981,    -5.77,          0,     0.00,          0,     0.00,          0,     0.00,    19.4981,    -5.77
Line.174974,    15.6053,   174.21,          0,     0.00,          0,     0.00,          0,     0.00,    15.6053,   174.21,    15.6053,    -5.79,          0,     0.00,          0,     0.00,          0,     0.00,    15.6053,    -5.79
Line.174975,    11.7119,   174.19,          0,     0.00,          0,     0.00,          0,     0.00,    11.7119,   174.19,    11.7119,    -5.81,          0,     0.00,          0,     0.00,          0,     0.00,    11.7119,    -5.81
Line.174976,    2.58624,   174.68,          0,     0.00,          0,     0.00,          0,     0.00,    2.58624,   174.68,    2.58624,    -5.32,          0,     0.00,          0,     0.00,          0,     0.00,    2.58624,    -5.32
Line.174977,    9.12575,   174.05,          0,     0.00,          0,     0.00,          0,     0.00,    9.12575,   174.05,    9.12575,    -5.95,          0,     0.00,          0,     0.00,          0,     0.00,    9.12575,    -5.95
Line.174978,    3.94383,   173.58,          0,     0.00,          0,     0.00,          0,     0.00,    3.94383,   173.58,    3.94383,    -6.42,          0,     0.00,          0,     0.00,          0,     0.00,    3.94383,    -6.42
Line.174979,    0.07072,   129.66,          0,     0.00,          0,     0.00,          0,     0.00,    0.07072,   129.66,    0.07072,   -50.34,          0,     0.00,          0,     0.00,          0,     0.00,    0.07072,   -50.34
Line.174980,    28.5854,   114.23,    31.6824,    -5.75,      26.42,  -125.61,          0,     0.00,    4.63131,    17.77,    28.5854,   -65.77,    31.6824,   174.25,      26.42,    54.39,          0,     0.00,    4.63131,  -162.23
Line.174981, 5.09912E-8,    49.24, 5.08688E-8,   -70.69, 5.04385E-8,   169.49,          0,     0.00, 5.56979E-10,   -19.86, 2.34643E-10,  -119.74, 1.97927E-10,  -107.10, 3.50457E-10,   131.63,          0,     0.00, 4.27985E-10,  -162.18
